[Configuration]
Relay_control_source_Left=COM3
Relay_control_source_Baud_Left=9600
ESD_NUM_Left=11
Scanning_interval=1000
Scanning_timeout=3
Relay_control_Cell_police=COM4
Relay_control_Cell_police_Baud=9600
Alarm_detection=1000
Monitor=Со»Ф
t_Line_body=BE14
ESD_NUM_right=12
Relay_control_source_right=COM4
Relay_control_source_Baud_right=9600
[ESDConfig_Left]
ESD0001=0001,01 02 00 00 00 02 F9 CB,01 02 01 00 A1 88,01 02 01 03 E1 89,01 02 01 01 60 48
ESD0002=0002,02 02 00 00 00 02 F9 F8,02 02 01 00 A1 CC,02 02 01 03 E1 CD,02 02 01 01 60 0C
ESD0003=0003,03 02 00 00 00 02 F8 29,03 02 01 00 A0 30,03 02 01 03 E0 31,03 02 01 01 61 F0
ESD0004=0004,04 02 00 00 00 02 F9 9E,04 02 01 00 A1 44,04 02 01 03 E1 45,04 02 01 01 60 84
ESD0005=0005,05 02 00 00 00 02 F8 4F,05 02 01 00 A0 B8,05 02 01 03 E0 B9,05 02 01 01 61 78
ESD0006=0006,06 02 00 00 00 02 F8 7C,06 02 01 00 A0 FC,06 02 01 03 E0 FD,06 02 01 01 61 3C
ESD0007=0007,07 02 00 00 00 02 F9 AD,07 02 01 00 A1 00,07 02 01 03 E1 01,07 02 01 01 60 C0
ESD0008=0008,08 02 00 00 00 02 F9 52,08 02 01 00 A2 14,08 02 01 03 E2 15,08 02 01 01 63 D4
ESD0009=0009,09 02 00 00 00 02 F8 83,09 02 01 00 A3 E8,09 02 01 03 E3 E9,09 02 01 01 62 28
ESD0010=0010,0A 02 00 00 00 02 F8 B0,0A 02 01 00 A3 AC,0A 02 01 03 E3 AD,0A 02 01 01 62 6C
ESD0011=0011,0B 02 00 00 00 02 F9 61,0B 02 01 00 A2 50,0B 02 01 03 E2 51,0B 02 01 01 63 90
ESD0012=0012,0C 02 00 00 00 02 F8 D6,0C 02 01 00 A3 24,0C 02 01 03 E3 25,0C 02 01 01 62 E4
ESD0013=0013,0D 02 00 00 00 02 F9 07,0D 02 01 00 A2 D8,0D 02 01 03 E2 D9,0D 02 01 01 63 18
ESD0014=0014,0E 02 00 00 00 02 F9 34,0E 02 01 00 A2 9C,0E 02 01 03 E2 9D,0E 02 01 01 63 5C
ESD0015=0015,0F 02 00 00 00 02 F8 E5,0F 02 01 00 A3 60,0F 02 01 03 E3 61,0F 02 01 01 62 A0
ESD0016=0016,10 02 00 00 00 02 FA 8A,10 02 01 00 A4 B4,10 02 01 03 E4 B5,10 02 01 01 65 74
ESD0017=0017,11 02 00 00 00 02 FB 5B,11 02 01 00 A5 48,11 02 01 03 E5 49,11 02 01 01 64 88
ESD0018=0018,12 02 00 00 00 02 FB 68,12 02 01 00 A5 0C,12 02 01 03 E5 0D,12 02 01 01 64 CC
ESD0019=0019,13 02 00 00 00 02 FA B9,13 02 01 00 A4 F0,13 02 01 03 E4 F1,13 02 01 01 65 30
ESD0020=0020,14 02 00 00 00 02 FB 0E,14 02 01 00 A5 84,14 02 01 03 E5 85,14 02 01 01 64 44
ESD0021=0021,15 02 00 00 00 02 FA DF,15 02 01 00 A4 78,15 02 01 03 E4 79,15 02 01 01 65 B8
ESD0022=0022,16 02 00 00 00 02 FA EC,16 02 01 00 A4 3C,16 02 01 03 E4 3D,16 02 01 01 65 FC
ESD0023=0023,17 02 00 00 00 02 FB 3D,17 02 01 00 A5 C0,17 02 01 03 E5 C1,17 02 01 01 64 00
ESD0024=0024,18 02 00 00 00 02 FB C2,18 02 01 00 A6 D4,18 02 01 03 E6 D5,18 02 01 01 67 14
ESD0025=0025,19 02 00 00 00 02 FA 13,19 02 01 00 A7 28,19 02 01 03 E7 29,19 02 01 01 66 E8
ESD0026=0026,1A 02 00 00 00 02 FA 20,1A 02 01 00 A7 6C,1A 02 01 03 E7 6D,1A 02 01 01 66 AC
ESD0027=0027,1B 02 00 00 00 02 FB F1,1B 02 01 00 A6 90,1B 02 01 03 E6 91,1B 02 01 01 67 50
ESD0028=0028,1C 02 00 00 00 02 FA 46,1C 02 01 00 A7 E4,1C 02 01 03 E7 E5,1C 02 01 01 66 24
ESD0029=0029,1D 02 00 00 00 02 FB 97,1D 02 01 00 A6 18,1D 02 01 03 E6 19,1D 02 01 01 67 D8
ESD0030=0030,1E 02 00 00 00 02 FB A4,1E 02 01 00 A6 5C,1E 02 01 03 E6 5D,1E 02 01 01 67 9C
ESD0031=0031,,,,
[Connect]
server=10.114.113.2,1433
Table=tab_ESD_MonitorDB
[ESDConfig_right]
ESD0001=0001,01 02 00 00 00 02 F9 CB,01 02 01 00 A1 88,01 02 01 03 E1 89,01 02 01 01 60 48
ESD0002=0002,02 02 00 00 00 02 F9 F8,02 02 01 00 A1 CC,02 02 01 03 E1 CD,02 02 01 01 60 0C
ESD0003=0003,03 02 00 00 00 02 F8 29,03 02 01 00 A0 30,03 02 01 03 E0 31,03 02 01 01 61 F0
ESD0004=0004,04 02 00 00 00 02 F9 9E,04 02 01 00 A1 44,04 02 01 03 E1 45,04 02 01 01 60 84
ESD0005=0005,05 02 00 00 00 02 F8 4F,05 02 01 00 A0 B8,05 02 01 03 E0 B9,05 02 01 01 61 78
ESD0006=0006,06 02 00 00 00 02 F8 7C,06 02 01 00 A0 FC,06 02 01 03 E0 FD,06 02 01 01 61 3C
ESD0007=0007,07 02 00 00 00 02 F9 AD,07 02 01 00 A1 00,07 02 01 03 E1 01,07 02 01 01 60 C0
ESD0008=0008,08 02 00 00 00 02 F9 52,08 02 01 00 A2 14,08 02 01 03 E2 15,08 02 01 01 63 D4
ESD0009=0009,09 02 00 00 00 02 F8 83,09 02 01 00 A3 E8,09 02 01 03 E3 E9,09 02 01 01 62 28
ESD0010=0010,0A 02 00 00 00 02 F8 B0,0A 02 01 00 A3 AC,0A 02 01 03 E3 AD,0A 02 01 01 62 6C
ESD0011=0011,0B 02 00 00 00 02 F9 61,0B 02 01 00 A2 50,0B 02 01 03 E2 51,0B 02 01 01 63 90
ESD0012=0012,0C 02 00 00 00 02 F8 D6,0C 02 01 00 A3 24,0C 02 01 03 E3 25,0C 02 01 01 62 E4
ESD0013=0013,0D 02 00 00 00 02 F9 07,0D 02 01 00 A2 D8,0D 02 01 03 E2 D9,0D 02 01 01 63 18
ESD0014=0014,0E 02 00 00 00 02 F9 34,0E 02 01 00 A2 9C,0E 02 01 03 E2 9D,0E 02 01 01 63 5C
ESD0015=0015,0F 02 00 00 00 02 F8 E5,0F 02 01 00 A3 60,0F 02 01 03 E3 61,0F 02 01 01 62 A0
ESD0016=0016,10 02 00 00 00 02 FA 8A,10 02 01 00 A4 B4,10 02 01 03 E4 B5,10 02 01 01 65 74
ESD0017=0017,11 02 00 00 00 02 FB 5B,11 02 01 00 A5 48,11 02 01 03 E5 49,11 02 01 01 64 88
ESD0018=0018,12 02 00 00 00 02 FB 68,12 02 01 00 A5 0C,12 02 01 03 E5 0D,12 02 01 01 64 CC
ESD0019=0019,13 02 00 00 00 02 FA B9,13 02 01 00 A4 F0,13 02 01 03 E4 F1,13 02 01 01 65 30
ESD0020=0020,14 02 00 00 00 02 FB 0E,14 02 01 00 A5 84,14 02 01 03 E5 85,14 02 01 01 64 44
ESD0021=0021,15 02 00 00 00 02 FA DF,15 02 01 00 A4 78,15 02 01 03 E4 79,15 02 01 01 65 B8
ESD0022=0022,16 02 00 00 00 02 FA EC,16 02 01 00 A4 3C,16 02 01 03 E4 3D,16 02 01 01 65 FC
ESD0023=0023,17 02 00 00 00 02 FB 3D,17 02 01 00 A5 C0,17 02 01 03 E5 C1,17 02 01 01 64 00
ESD0024=0024,18 02 00 00 00 02 FB C2,18 02 01 00 A6 D4,18 02 01 03 E6 D5,18 02 01 01 67 14
ESD0025=0025,19 02 00 00 00 02 FA 13,19 02 01 00 A7 28,19 02 01 03 E7 29,19 02 01 01 66 E8
ESD0026=0026,1A 02 00 00 00 02 FA 20,1A 02 01 00 A7 6C,1A 02 01 03 E7 6D,1A 02 01 01 66 AC
ESD0027=0027,1B 02 00 00 00 02 FB F1,1B 02 01 00 A6 90,1B 02 01 03 E6 91,1B 02 01 01 67 50
ESD0028=0028,1C 02 00 00 00 02 FA 46,1C 02 01 00 A7 E4,1C 02 01 03 E7 E5,1C 02 01 01 66 24
ESD0029=0029,1D 02 00 00 00 02 FB 97,1D 02 01 00 A6 18,1D 02 01 03 E6 19,1D 02 01 01 67 D8
ESD0030=0030,1E 02 00 00 00 02 FB A4,1E 02 01 00 A6 5C,1E 02 01 03 E6 5D,1E 02 01 01 67 9C
[ESDEnable_right]
ESDB-001=True
ESDB-007=True
ESDB-013=True
ESDB-002=True
ESDB-006=True
ESDB-008=True
ESDB-009=True
ESDB-020=True
ESDB-021=True
ESDB-022=True
ESDB-012=True
ESDB-011=True
[ESDEnable_Left]
ESDA-005=True
ESDA-009=True
ESDA-013=True
ESDA-007=True
ESDA-011=True
ESDA-002=True
ESDA-015=True
ESDA-017=True
ESDA-003=True
ESDA-004=True
ESDA-008=True
ESDA-001=True
ESDA-006=True
ESDA-010=True
[Submission]
RetryCount=3
