
2019-11-04 10:28:57 - 线程数[18] 线程[] 程序版本[1.0.0.12] 线体[BE25]同步时间错误-String 引用没有设置为 String 的实例。
参数名: s
   在 System.DateTimeParse.Parse(String s, DateTimeFormatInfo dtfi, DateTimeStyles styles)
   在 System.DateTime.Parse(String s)
   在 ESD_Kanban.GetSYSTEMTIME.Synchronization_time() 位置 C:\Users\YUAN.SUO\Documents\程序开发\ESD在线看板\ESD可视化看板\同步服务器时间\GetSYSTEMTIME.vb:行号 58
2019-11-04 10:28:58 - 线程数[20] 线程[报警状态轮询] 程序版本[1.0.0.12] 线体[BE25]报警灯(红灯)闪耀 启动
2019-11-04 10:28:58 - 线程数[20] 线程[统计图表线程] 程序版本[1.0.0.12] 线体[BE25]统计图表方法线程 启动
2019-11-04 10:28:58 - 线程数[20] 线程[统计图表线程] 程序版本[1.0.0.12] 线体[BE25]统计图表方法刷新线程 | 未将对象引用设置到对象的实例。|   在 ESD_Kanban.Form1.Statistical_chart() 位置 C:\Users\YUAN.SUO\Documents\程序开发\ESD在线看板\ESD可视化看板\Form1.vb:行号 1514
2019-11-04 10:28:59 - 线程数[25] 线程[ESD串口通信线程] 程序版本[1.0.0.12] 线体[BE25]A线程循环发送串口指令 启动
2019-11-04 10:28:59 - 线程数[29] 线程[ESD串口通信线程] 程序版本[1.0.0.12] 线体[BE25][采集器B]线程循环发送串口指令 启动
2019-11-04 10:29:00 - 线程数[40] 线程[] 程序版本[1.0.0.12] 线体[BE25]B串口接收指令:01 02 00 00 00 02 F9 CB ,长度:8
2019-11-04 10:29:00 - 线程数[40] 线程[] 程序版本[1.0.0.12] 线体[BE25]A串口接收指令:01 02 00 00 00 02 F9 CB ,长度:8
2019-11-04 10:29:01 - 线程数[40] 线程[] 程序版本[1.0.0.12] 线体[BE25]B串口接收指令:02 02 00 00 00 02 F9 F8 ,长度:8
2019-11-04 10:29:01 - 线程数[40] 线程[] 程序版本[1.0.0.12] 线体[BE25]A串口接收指令:02 02 00 00 00 02 F9 F8 ,长度:8
2019-11-04 10:29:02 - 线程数[39] 线程[] 程序版本[1.0.0.12] 线体[BE25]A串口接收指令:03 04 00 00 00 02 70 29 ,长度:8
2019-11-04 10:29:03 - 线程数[39] 线程[] 程序版本[1.0.0.12] 线体[BE25]A串口接收指令:04 02 00 00 00 02 F9 9E ,长度:8
2019-11-04 10:29:04 - 线程数[39] 线程[] 程序版本[1.0.0.12] 线体[BE25]A串口接收指令:05 02 00 00 00 02 F8 4F ,长度:8
2019-11-04 10:29:05 - 线程数[39] 线程[] 程序版本[1.0.0.12] 线体[BE25]B串口接收指令:06 02 00 00 00 02 F8 7C ,长度:8
2019-11-04 10:29:07 - 线程数[39] 线程[] 程序版本[1.0.0.12] 线体[BE25]A串口接收指令:08 02 00 00 00 02 F9 52 ,长度:8
2019-11-04 10:29:08 - 线程数[39] 线程[] 程序版本[1.0.0.12] 线体[BE25]B串口接收指令:09 02 00 00 00 02 F8 83 ,长度:8
2019-11-04 10:29:08 - 线程数[39] 线程[] 程序版本[1.0.0.12] 线体[BE25]A串口接收指令:09 02 00 00 00 02 F8 83 ,长度:8
2019-11-04 10:29:09 - 线程数[39] 线程[] 程序版本[1.0.0.12] 线体[BE25]B串口接收指令:0A 02 00 00 00 02 F8 B0 ,长度:8
2019-11-04 10:29:09 - 线程数[40] 线程[] 程序版本[1.0.0.12] 线体[BE25]A串口接收指令:0A 02 00 00 00 02 F8 B0 ,长度:8
2019-11-04 10:29:10 - 线程数[40] 线程[] 程序版本[1.0.0.12] 线体[BE25]B串口接收指令:0B 02 00 00 00 02 F9 61 ,长度:8
2019-11-04 10:29:10 - 线程数[40] 线程[] 程序版本[1.0.0.12] 线体[BE25]A串口接收指令:0B 02 00 00 00 02 F9 61 ,长度:8
2019-11-04 10:29:11 - 线程数[40] 线程[] 程序版本[1.0.0.12] 线体[BE25]B串口接收指令:0C 02 00 00 00 02 F8 D6 ,长度:8
2019-11-04 10:29:11 - 线程数[40] 线程[] 程序版本[1.0.0.12] 线体[BE25]A串口接收指令:0C 02 00 00 00 02 F8 D6 ,长度:8
2019-11-04 10:29:12 - 线程数[40] 线程[] 程序版本[1.0.0.12] 线体[BE25]B串口接收指令:0D 02 00 00 00 02 F9 07 ,长度:8
2019-11-04 10:29:12 - 线程数[40] 线程[] 程序版本[1.0.0.12] 线体[BE25]A串口接收指令:0D 02 00 00 00 02 F9 07 ,长度:8
2019-11-04 10:29:13 - 线程数[40] 线程[] 程序版本[1.0.0.12] 线体[BE25]B串口接收指令:0E 02 00 00 00 02 F9 34 ,长度:8
2019-11-04 10:29:13 - 线程数[40] 线程[] 程序版本[1.0.0.12] 线体[BE25]A串口接收指令:0E 02 00 00 00 02 F9 34 ,长度:8
2019-11-04 10:29:14 - 线程数[40] 线程[] 程序版本[1.0.0.12] 线体[BE25]B串口接收指令:0F 02 00 00 00 02 F8 E5 ,长度:8
2019-11-04 10:29:14 - 线程数[40] 线程[] 程序版本[1.0.0.12] 线体[BE25]A串口接收指令:0F 02 00 00 00 02 F8 E5 ,长度:8
2019-11-04 10:29:15 - 线程数[40] 线程[] 程序版本[1.0.0.12] 线体[BE25]B串口接收指令:10 02 00 00 00 02 FA 8A ,长度:8
2019-11-04 10:29:15 - 线程数[40] 线程[] 程序版本[1.0.0.12] 线体[BE25]A串口接收指令:10 02 00 00 00 02 FA 8A ,长度:8
2019-11-04 10:29:16 - 线程数[40] 线程[] 程序版本[1.0.0.12] 线体[BE25]B串口接收指令:11 02 00 00 00 02 FB 5B ,长度:8
2019-11-04 10:29:16 - 线程数[40] 线程[] 程序版本[1.0.0.12] 线体[BE25]A串口接收指令:11 02 00 00 00 02 FB 5B ,长度:8
2019-11-04 10:29:17 - 线程数[40] 线程[] 程序版本[1.0.0.12] 线体[BE25]B串口接收指令:12 02 00 00 00 02 FB 68 ,长度:8
2019-11-04 10:29:17 - 线程数[40] 线程[] 程序版本[1.0.0.12] 线体[BE25]A串口接收指令:12 02 00 00 00 02 FB 68 ,长度:8
2019-11-04 10:29:18 - 线程数[40] 线程[] 程序版本[1.0.0.12] 线体[BE25]B串口接收指令:13 02 00 00 00 02 FA B9 ,长度:8
2019-11-04 10:29:18 - 线程数[40] 线程[] 程序版本[1.0.0.12] 线体[BE25]A串口接收指令:13 02 00 00 00 02 FA B9 ,长度:8
2019-11-04 10:29:19 - 线程数[40] 线程[] 程序版本[1.0.0.12] 线体[BE25]B串口接收指令:14 02 00 00 00 02 FB 0E ,长度:8
2019-11-04 10:29:19 - 线程数[40] 线程[] 程序版本[1.0.0.12] 线体[BE25]A串口接收指令:14 02 00 00 00 02 FB 0E ,长度:8
2019-11-04 10:29:20 - 线程数[40] 线程[] 程序版本[1.0.0.12] 线体[BE25]B串口接收指令:15 02 00 00 00 02 FA DF ,长度:8
2019-11-04 10:29:20 - 线程数[40] 线程[] 程序版本[1.0.0.12] 线体[BE25]A串口接收指令:15 02 00 00 00 02 FA DF ,长度:8
2019-11-04 10:29:21 - 线程数[40] 线程[] 程序版本[1.0.0.12] 线体[BE25]A串口接收指令:16 02 00 00 00 02 FA EC ,长度:8
2019-11-04 10:29:21 - 线程数[40] 线程[] 程序版本[1.0.0.12] 线体[BE25]B串口接收指令:16 02 00 00 00 02 FA EC ,长度:8
2019-11-04 10:29:22 - 线程数[40] 线程[] 程序版本[1.0.0.12] 线体[BE25]B串口接收指令:17 02 00 00 00 02 FB 3D ,长度:8
2019-11-04 10:29:22 - 线程数[40] 线程[] 程序版本[1.0.0.12] 线体[BE25]A串口接收指令:17 02 00 00 00 02 FB 3D ,长度:8
2019-11-04 10:29:23 - 线程数[40] 线程[] 程序版本[1.0.0.12] 线体[BE25]A串口接收指令:18 02 00 00 00 02 FB C2 ,长度:8
2019-11-04 10:29:23 - 线程数[40] 线程[] 程序版本[1.0.0.12] 线体[BE25]B串口接收指令:18 02 00 00 00 02 FB C2 ,长度:8
2019-11-04 10:29:24 - 线程数[40] 线程[] 程序版本[1.0.0.12] 线体[BE25]B串口接收指令:19 02 00 00 00 02 FA 13 ,长度:8
2019-11-04 10:29:24 - 线程数[40] 线程[] 程序版本[1.0.0.12] 线体[BE25]A串口接收指令:19 02 00 00 00 02 FA 13 ,长度:8
2019-11-04 10:29:25 - 线程数[40] 线程[] 程序版本[1.0.0.12] 线体[BE25]A串口接收指令:1A 02 00 00 00 02 FA 20 ,长度:8
2019-11-04 10:29:25 - 线程数[40] 线程[] 程序版本[1.0.0.12] 线体[BE25]B串口接收指令:1A 02 00 00 00 02 FA 20 ,长度:8
2019-11-04 10:29:26 - 线程数[40] 线程[] 程序版本[1.0.0.12] 线体[BE25]A串口接收指令:1B 02 00 00 00 02 FB F1 ,长度:8
2019-11-04 10:29:26 - 线程数[40] 线程[] 程序版本[1.0.0.12] 线体[BE25]B串口接收指令:1B 02 00 00 00 02 FB F1 ,长度:8
2019-11-04 10:29:27 - 线程数[40] 线程[] 程序版本[1.0.0.12] 线体[BE25]B串口接收指令:1C 02 00 00 00 02 FA 46 ,长度:8
2019-11-04 10:29:27 - 线程数[40] 线程[] 程序版本[1.0.0.12] 线体[BE25]A串口接收指令:1C 02 00 00 00 02 FA 46 ,长度:8
2019-11-04 10:29:28 - 线程数[40] 线程[] 程序版本[1.0.0.12] 线体[BE25]B串口接收指令:1D 02 00 00 00 02 FB 97 ,长度:8
2019-11-04 10:29:28 - 线程数[40] 线程[] 程序版本[1.0.0.12] 线体[BE25]A串口接收指令:1D 02 00 00 00 02 FB 97 ,长度:8
2019-11-04 10:29:29 - 线程数[40] 线程[] 程序版本[1.0.0.12] 线体[BE25]A串口接收指令:1E 02 00 00 00 02 FB A4 ,长度:8
2019-11-04 10:29:29 - 线程数[40] 线程[] 程序版本[1.0.0.12] 线体[BE25]B串口接收指令:1E 02 00 00 00 02 FB A4 ,长度:8
2019-11-04 10:29:30 - 线程数[40] 线程[] 程序版本[1.0.0.12] 线体[BE25]A串口接收指令:01 02 00 00 00 02 F9 CB ,长度:8
2019-11-04 10:29:30 - 线程数[40] 线程[] 程序版本[1.0.0.12] 线体[BE25]B串口接收指令:01 02 00 00 00 02 F9 CB ,长度:8
2019-11-04 10:29:31 - 线程数[40] 线程[] 程序版本[1.0.0.12] 线体[BE25]B串口接收指令:02 02 00 00 00 02 F9 F8 ,长度:8
2019-11-04 10:29:31 - 线程数[40] 线程[] 程序版本[1.0.0.12] 线体[BE25]A串口接收指令:02 02 00 00 00 02 F9 F8 ,长度:8