
2019-10-29 14:04:38 - 线程数[20] 线程[] 程序版本[1.0.0.12] 线体[BE25]时间同步失败!
2019-10-29 14:04:40 - 线程数[21] 线程[报警状态轮询] 程序版本[1.0.0.12] 线体[BE25]报警灯(红灯)闪耀 启动
2019-10-29 14:04:40 - 线程数[21] 线程[统计图表线程] 程序版本[1.0.0.12] 线体[BE25]统计图表方法线程 启动
2019-10-29 14:04:40 - 线程数[34] 线程[ESD串口通信线程] 程序版本[1.0.0.12] 线体[BE25]A线程循环发送串口指令 启动
2019-10-29 14:04:40 - 线程数[37] 线程[ESD串口通信线程] 程序版本[1.0.0.12] 线体[BE25][采集器B]线程循环发送串口指令 启动
2019-10-29 14:04:41 - 线程数[38] 线程[ESD串口通信线程] 程序版本[1.0.0.12] 线体[BE25]B线程循环发送串口指令正在中止线程。
2019-10-29 14:04:43 - 线程数[38] 线程[ESD串口通信线程] 程序版本[1.0.0.12] 线体[BE25][采集器B]线程循环发送串口指令 启动
2019-10-29 14:05:43 - 线程数[25] 线程[报警状态轮询] 程序版本[1.0.0.12] 线体[BE25]报警灯(红灯)闪耀 启动
2019-10-29 14:05:43 - 线程数[25] 线程[统计图表线程] 程序版本[1.0.0.12] 线体[BE25]统计图表方法线程 启动
2019-10-29 14:05:43 - 线程数[25] 线程[统计图表线程] 程序版本[1.0.0.12] 线体[BE25]统计图表方法刷新线程 | 线程间操作无效: 从不是创建控件“ZedGraphControl1”的线程访问它。|   在 System.Windows.Forms.Control.get_Handle()
   在 System.Windows.Forms.Control.Invalidate(Boolean invalidateChildren)
   在 System.Windows.Forms.Control.Refresh()
   在 ESD_Kanban.Form1.CreateGraph_GradientByZBars(ZedGraphControl z1, String Title_name, Dictionary`2 getdic, Int32 displacement, Int32 MAX, Int32 XFontSpec) 位置 C:\Users\YUAN.SUO\Documents\程序开发\ESD在线看板\ESD可视化看板\Form1.vb:行号 1706
   在 ESD_Kanban.Form1.Statistical_chart() 位置 C:\Users\YUAN.SUO\Documents\程序开发\ESD在线看板\ESD可视化看板\Form1.vb:行号 1524
2019-10-29 14:05:44 - 线程数[32] 线程[ESD串口通信线程] 程序版本[1.0.0.12] 线体[BE25]A线程循环发送串口指令 启动
2019-10-29 14:05:44 - 线程数[34] 线程[ESD串口通信线程] 程序版本[1.0.0.12] 线体[BE25][采集器B]线程循环发送串口指令 启动
2019-10-29 14:11:56 - 线程数[21] 线程[报警状态轮询] 程序版本[1.0.0.12] 线体[BE25]报警灯(红灯)闪耀 启动
2019-10-29 14:11:56 - 线程数[21] 线程[统计图表线程] 程序版本[1.0.0.12] 线体[BE25]统计图表方法线程 启动
2019-10-29 14:11:56 - 线程数[27] 线程[ESD串口通信线程] 程序版本[1.0.0.12] 线体[BE25]A线程循环发送串口指令 启动
2019-10-29 14:11:56 - 线程数[30] 线程[ESD串口通信线程] 程序版本[1.0.0.12] 线体[BE25][采集器B]线程循环发送串口指令 启动
2019-10-29 14:11:57 - 线程数[35] 线程[ESD串口通信线程] 程序版本[1.0.0.12] 线体[BE25]B线程循环发送串口指令正在中止线程。
2019-10-29 14:11:59 - 线程数[39] 线程[ESD串口通信线程] 程序版本[1.0.0.12] 线体[BE25][采集器B]线程循环发送串口指令 启动
2019-10-29 14:13:31 - 线程数[21] 线程[报警状态轮询] 程序版本[1.0.0.12] 线体[BE25]报警灯(红灯)闪耀 启动
2019-10-29 14:13:31 - 线程数[21] 线程[统计图表线程] 程序版本[1.0.0.12] 线体[BE25]统计图表方法线程 启动
2019-10-29 14:13:31 - 线程数[28] 线程[ESD串口通信线程] 程序版本[1.0.0.12] 线体[BE25]A线程循环发送串口指令 启动
2019-10-29 14:13:31 - 线程数[30] 线程[ESD串口通信线程] 程序版本[1.0.0.12] 线体[BE25][采集器B]线程循环发送串口指令 启动
2019-10-29 14:13:32 - 线程数[34] 线程[ESD串口通信线程] 程序版本[1.0.0.12] 线体[BE25]B线程循环发送串口指令正在中止线程。
2019-10-29 14:13:34 - 线程数[38] 线程[ESD串口通信线程] 程序版本[1.0.0.12] 线体[BE25][采集器B]线程循环发送串口指令 启动
2019-10-29 14:13:47 - 线程数[21] 线程[报警状态轮询] 程序版本[1.0.0.12] 线体[BE25]报警灯(红灯)闪耀 启动
2019-10-29 14:13:47 - 线程数[21] 线程[统计图表线程] 程序版本[1.0.0.12] 线体[BE25]统计图表方法线程 启动
2019-10-29 14:13:47 - 线程数[26] 线程[ESD串口通信线程] 程序版本[1.0.0.12] 线体[BE25]A线程循环发送串口指令 启动
2019-10-29 14:13:47 - 线程数[29] 线程[ESD串口通信线程] 程序版本[1.0.0.12] 线体[BE25][采集器B]线程循环发送串口指令 启动
2019-10-29 14:13:49 - 线程数[38] 线程[] 程序版本[1.0.0.12] 线体[BE25]B串口接收指令:01 02 00 00 00 02 F9 CB ,长度:8
2019-10-29 14:13:49 - 线程数[38] 线程[] 程序版本[1.0.0.12] 线体[BE25]A串口接收指令:01 02 00 00 00 02 F9 CB ,长度:8
2019-10-29 14:13:50 - 线程数[39] 线程[] 程序版本[1.0.0.12] 线体[BE25]A串口接收指令:02 02 00 00 00 02 F9 F8 ,长度:8
2019-10-29 14:13:50 - 线程数[39] 线程[] 程序版本[1.0.0.12] 线体[BE25]B串口接收指令:02 02 00 00 00 02 F9 F8 ,长度:8
2019-10-29 14:13:51 - 线程数[38] 线程[] 程序版本[1.0.0.12] 线体[BE25]A串口接收指令:03 04 00 00 00 02 70 29 ,长度:8
2019-10-29 14:13:52 - 线程数[38] 线程[] 程序版本[1.0.0.12] 线体[BE25]A串口接收指令:04 02 00 00 00 02 F9 9E ,长度:8
2019-10-29 14:13:53 - 线程数[38] 线程[] 程序版本[1.0.0.12] 线体[BE25]A串口接收指令:05 02 00 00 00 02 F8 4F ,长度:8
2019-10-29 14:13:54 - 线程数[38] 线程[] 程序版本[1.0.0.12] 线体[BE25]B串口接收指令:06 02 00 00 00 02 F8 7C ,长度:8
2019-10-29 14:13:56 - 线程数[38] 线程[] 程序版本[1.0.0.12] 线体[BE25]A串口接收指令:08 02 00 00 00 02 F9 52 ,长度:8
2019-10-29 14:13:57 - 线程数[37] 线程[] 程序版本[1.0.0.12] 线体[BE25]B串口接收指令:09 02 00 00 00 02 F8 83 ,长度:8
2019-10-29 14:13:57 - 线程数[37] 线程[] 程序版本[1.0.0.12] 线体[BE25]A串口接收指令:09 02 00 00 00 02 F8 83 ,长度:8
2019-10-29 14:13:58 - 线程数[37] 线程[] 程序版本[1.0.0.12] 线体[BE25]B串口接收指令:0A 02 00 00 00 02 F8 B0 ,长度:8
2019-10-29 14:13:58 - 线程数[37] 线程[] 程序版本[1.0.0.12] 线体[BE25]A串口接收指令:0A 02 00 00 00 02 F8 B0 ,长度:8
2019-10-29 14:13:59 - 线程数[37] 线程[] 程序版本[1.0.0.12] 线体[BE25]B串口接收指令:0B 02 00 00 00 02 F9 61 ,长度:8
2019-10-29 14:13:59 - 线程数[37] 线程[] 程序版本[1.0.0.12] 线体[BE25]A串口接收指令:0B 02 00 00 00 02 F9 61 ,长度:8
2019-10-29 14:14:00 - 线程数[37] 线程[] 程序版本[1.0.0.12] 线体[BE25]B串口接收指令:0C 02 00 00 00 02 F8 D6 ,长度:8
2019-10-29 14:14:00 - 线程数[38] 线程[] 程序版本[1.0.0.12] 线体[BE25]A串口接收指令:0C 02 00 00 00 02 F8 D6 ,长度:8
2019-10-29 14:14:01 - 线程数[38] 线程[] 程序版本[1.0.0.12] 线体[BE25]B串口接收指令:0D 02 00 00 00 02 F9 07 ,长度:8
2019-10-29 14:14:01 - 线程数[38] 线程[] 程序版本[1.0.0.12] 线体[BE25]A串口接收指令:0D 02 00 00 00 02 F9 07 ,长度:8
2019-10-29 14:14:02 - 线程数[38] 线程[] 程序版本[1.0.0.12] 线体[BE25]B串口接收指令:0E 02 00 00 00 02 F9 34 ,长度:8
2019-10-29 14:14:02 - 线程数[38] 线程[] 程序版本[1.0.0.12] 线体[BE25]A串口接收指令:0E 02 00 00 00 02 F9 34 ,长度:8
2019-10-29 14:14:03 - 线程数[39] 线程[] 程序版本[1.0.0.12] 线体[BE25]B串口接收指令:0F 02 00 00 00 02 F8 E5 ,长度:8
2019-10-29 14:14:03 - 线程数[39] 线程[] 程序版本[1.0.0.12] 线体[BE25]A串口接收指令:0F 02 00 00 00 02 F8 E5 ,长度:8
2019-10-29 14:14:04 - 线程数[39] 线程[] 程序版本[1.0.0.12] 线体[BE25]B串口接收指令:10 02 00 00 00 02 FA 8A ,长度:8
2019-10-29 14:14:04 - 线程数[39] 线程[] 程序版本[1.0.0.12] 线体[BE25]A串口接收指令:10 02 00 00 00 02 FA 8A ,长度:8
2019-10-29 14:14:05 - 线程数[39] 线程[] 程序版本[1.0.0.12] 线体[BE25]B串口接收指令:11 02 00 00 00 02 FB 5B ,长度:8
2019-10-29 14:14:05 - 线程数[39] 线程[] 程序版本[1.0.0.12] 线体[BE25]A串口接收指令:11 02 00 00 00 02 FB 5B ,长度:8
2019-10-29 14:14:06 - 线程数[39] 线程[] 程序版本[1.0.0.12] 线体[BE25]B串口接收指令:12 02 00 00 00 02 FB 68 ,长度:8
2019-10-29 14:14:06 - 线程数[39] 线程[] 程序版本[1.0.0.12] 线体[BE25]A串口接收指令:12 02 00 00 00 02 FB 68 ,长度:8
2019-10-29 14:14:07 - 线程数[39] 线程[] 程序版本[1.0.0.12] 线体[BE25]B串口接收指令:13 02 00 00 00 02 FA B9 ,长度:8
2019-10-29 14:14:07 - 线程数[39] 线程[] 程序版本[1.0.0.12] 线体[BE25]A串口接收指令:13 02 00 00 00 02 FA B9 ,长度:8
2019-10-29 14:14:08 - 线程数[39] 线程[] 程序版本[1.0.0.12] 线体[BE25]B串口接收指令:14 02 00 00 00 02 FB 0E ,长度:8
2019-10-29 14:14:08 - 线程数[39] 线程[] 程序版本[1.0.0.12] 线体[BE25]A串口接收指令:14 02 00 00 00 02 FB 0E ,长度:8
2019-10-29 14:14:09 - 线程数[39] 线程[] 程序版本[1.0.0.12] 线体[BE25]B串口接收指令:15 02 00 00 00 02 FA DF ,长度:8
2019-10-29 14:14:09 - 线程数[39] 线程[] 程序版本[1.0.0.12] 线体[BE25]A串口接收指令:15 02 00 00 00 02 FA DF ,长度:8
2019-10-29 14:14:10 - 线程数[39] 线程[] 程序版本[1.0.0.12] 线体[BE25]B串口接收指令:16 02 00 00 00 02 FA EC ,长度:8
2019-10-29 14:14:10 - 线程数[39] 线程[] 程序版本[1.0.0.12] 线体[BE25]A串口接收指令:16 02 00 00 00 02 FA EC ,长度:8
2019-10-29 14:14:11 - 线程数[39] 线程[] 程序版本[1.0.0.12] 线体[BE25]B串口接收指令:17 02 00 00 00 02 FB 3D ,长度:8
2019-10-29 14:14:11 - 线程数[39] 线程[] 程序版本[1.0.0.12] 线体[BE25]A串口接收指令:17 02 00 00 00 02 FB 3D ,长度:8
2019-10-29 14:14:12 - 线程数[39] 线程[] 程序版本[1.0.0.12] 线体[BE25]B串口接收指令:18 02 00 00 00 02 FB C2 ,长度:8
2019-10-29 14:14:12 - 线程数[39] 线程[] 程序版本[1.0.0.12] 线体[BE25]A串口接收指令:18 02 00 00 00 02 FB C2 ,长度:8
2019-10-29 14:14:13 - 线程数[39] 线程[] 程序版本[1.0.0.12] 线体[BE25]B串口接收指令:19 02 00 00 00 02 FA 13 ,长度:8
2019-10-29 14:14:13 - 线程数[39] 线程[] 程序版本[1.0.0.12] 线体[BE25]A串口接收指令:19 02 00 00 00 02 FA 13 ,长度:8
2019-10-29 14:14:14 - 线程数[39] 线程[] 程序版本[1.0.0.12] 线体[BE25]A串口接收指令:1A 02 00 00 00 02 FA 20 ,长度:8
2019-10-29 14:14:14 - 线程数[39] 线程[] 程序版本[1.0.0.12] 线体[BE25]B串口接收指令:1A 02 00 00 00 02 FA 20 ,长度:8
2019-10-29 14:14:15 - 线程数[39] 线程[] 程序版本[1.0.0.12] 线体[BE25]A串口接收指令:1B 02 00 00 00 02 FB F1 ,长度:8
2019-10-29 14:14:15 - 线程数[39] 线程[] 程序版本[1.0.0.12] 线体[BE25]B串口接收指令:1B 02 00 00 00 02 FB F1 ,长度:8
2019-10-29 14:14:16 - 线程数[39] 线程[] 程序版本[1.0.0.12] 线体[BE25]A串口接收指令:1C 02 00 00 00 02 FA 46 ,长度:8
2019-10-29 14:14:16 - 线程数[39] 线程[] 程序版本[1.0.0.12] 线体[BE25]B串口接收指令:1C 02 00 00 00 02 FA 46 ,长度:8
2019-10-29 14:14:17 - 线程数[39] 线程[] 程序版本[1.0.0.12] 线体[BE25]B串口接收指令:1D 02 00 00 00 02 FB 97 ,长度:8
2019-10-29 14:14:17 - 线程数[39] 线程[] 程序版本[1.0.0.12] 线体[BE25]A串口接收指令:1D 02 00 00 00 02 FB 97 ,长度:8
2019-10-29 14:14:18 - 线程数[39] 线程[] 程序版本[1.0.0.12] 线体[BE25]A串口接收指令:1E 02 00 00 00 02 FB A4 ,长度:8
2019-10-29 14:14:18 - 线程数[39] 线程[] 程序版本[1.0.0.12] 线体[BE25]B串口接收指令:1E 02 00 00 00 02 FB A4 ,长度:8
2019-10-29 14:14:19 - 线程数[39] 线程[] 程序版本[1.0.0.12] 线体[BE25]B串口接收指令:01 02 00 00 00 02 F9 CB ,长度:8
2019-10-29 14:14:19 - 线程数[39] 线程[] 程序版本[1.0.0.12] 线体[BE25]A串口接收指令:01 02 00 00 00 02 F9 CB ,长度:8
2019-10-29 14:14:20 - 线程数[39] 线程[] 程序版本[1.0.0.12] 线体[BE25]B串口接收指令:02 02 00 00 00 02 F9 F8 ,长度:8
2019-10-29 14:14:20 - 线程数[39] 线程[] 程序版本[1.0.0.12] 线体[BE25]A串口接收指令:02 02 00 00 00 02 F9 F8 ,长度:8
2019-10-29 14:14:21 - 线程数[39] 线程[] 程序版本[1.0.0.12] 线体[BE25]A串口接收指令:03 04 00 00 00 02 70 29 ,长度:8
2019-10-29 14:14:22 - 线程数[39] 线程[] 程序版本[1.0.0.12] 线体[BE25]A串口接收指令:04 02 00 00 00 02 F9 9E ,长度:8
2019-10-29 14:14:23 - 线程数[39] 线程[] 程序版本[1.0.0.12] 线体[BE25]A串口接收指令:05 02 00 00 00 02 F8 4F ,长度:8
2019-10-29 14:14:24 - 线程数[39] 线程[] 程序版本[1.0.0.12] 线体[BE25]B串口接收指令:06 02 00 00 00 02 F8 7C ,长度:8
2019-10-29 14:14:33 - 线程数[21] 线程[统计图表线程] 程序版本[1.0.0.12] 线体[BE25]统计图表方法线程 启动
2019-10-29 14:14:33 - 线程数[21] 线程[报警状态轮询] 程序版本[1.0.0.12] 线体[BE25]报警灯(红灯)闪耀 启动
2019-10-29 14:14:33 - 线程数[26] 线程[ESD串口通信线程] 程序版本[1.0.0.12] 线体[BE25]A线程循环发送串口指令 启动
2019-10-29 14:14:33 - 线程数[30] 线程[ESD串口通信线程] 程序版本[1.0.0.12] 线体[BE25][采集器B]线程循环发送串口指令 启动
2019-10-29 14:14:34 - 线程数[35] 线程[ESD串口通信线程] 程序版本[1.0.0.12] 线体[BE25]B线程循环发送串口指令正在中止线程。
2019-10-29 14:14:36 - 线程数[39] 线程[ESD串口通信线程] 程序版本[1.0.0.12] 线体[BE25][采集器B]线程循环发送串口指令 启动
2019-10-29 14:14:57 - 线程数[21] 线程[报警状态轮询] 程序版本[1.0.0.12] 线体[BE25]报警灯(红灯)闪耀 启动
2019-10-29 14:14:57 - 线程数[21] 线程[统计图表线程] 程序版本[1.0.0.12] 线体[BE25]统计图表方法线程 启动
2019-10-29 14:14:57 - 线程数[26] 线程[ESD串口通信线程] 程序版本[1.0.0.12] 线体[BE25]A线程循环发送串口指令 启动
2019-10-29 14:14:57 - 线程数[28] 线程[ESD串口通信线程] 程序版本[1.0.0.12] 线体[BE25][采集器B]线程循环发送串口指令 启动
2019-10-29 14:14:59 - 线程数[34] 线程[ESD串口通信线程] 程序版本[1.0.0.12] 线体[BE25]B线程循环发送串口指令正在中止线程。
2019-10-29 14:15:01 - 线程数[38] 线程[ESD串口通信线程] 程序版本[1.0.0.12] 线体[BE25][采集器B]线程循环发送串口指令 启动
2019-10-29 14:15:17 - 线程数[21] 线程[报警状态轮询] 程序版本[1.0.0.12] 线体[BE25]报警灯(红灯)闪耀 启动
2019-10-29 14:15:17 - 线程数[28] 线程[ESD串口通信线程] 程序版本[1.0.0.12] 线体[BE25]A线程循环发送串口指令 启动
2019-10-29 14:15:17 - 线程数[29] 线程[ESD串口通信线程] 程序版本[1.0.0.12] 线体[BE25][采集器B]线程循环发送串口指令 启动
2019-10-29 14:15:20 - 线程数[33] 线程[ESD串口通信线程] 程序版本[1.0.0.12] 线体[BE25]B线程循环发送串口指令正在中止线程。
2019-10-29 14:15:22 - 线程数[38] 线程[ESD串口通信线程] 程序版本[1.0.0.12] 线体[BE25][采集器B]线程循环发送串口指令 启动
2019-10-29 14:15:39 - 线程数[21] 线程[报警状态轮询] 程序版本[1.0.0.12] 线体[BE25]报警灯(红灯)闪耀 启动
2019-10-29 14:15:40 - 线程数[26] 线程[ESD串口通信线程] 程序版本[1.0.0.12] 线体[BE25]A线程循环发送串口指令 启动
2019-10-29 14:15:40 - 线程数[29] 线程[ESD串口通信线程] 程序版本[1.0.0.12] 线体[BE25][采集器B]线程循环发送串口指令 启动
2019-10-29 14:15:41 - 线程数[38] 线程[] 程序版本[1.0.0.12] 线体[BE25]A串口接收指令:01 02 00 00 00 02 F9 CB ,长度:8
2019-10-29 14:15:41 - 线程数[38] 线程[] 程序版本[1.0.0.12] 线体[BE25]B串口接收指令:01 02 00 00 00 02 F9 CB ,长度:8
2019-10-29 14:15:42 - 线程数[38] 线程[] 程序版本[1.0.0.12] 线体[BE25]A串口接收指令:02 02 00 00 00 02 F9 F8 ,长度:8
2019-10-29 14:15:42 - 线程数[38] 线程[] 程序版本[1.0.0.12] 线体[BE25]B串口接收指令:02 02 00 00 00 02 F9 F8 ,长度:8
2019-10-29 14:15:43 - 线程数[37] 线程[] 程序版本[1.0.0.12] 线体[BE25]A串口接收指令:03 04 00 00 00 02 70 29 ,长度:8
2019-10-29 14:15:44 - 线程数[37] 线程[] 程序版本[1.0.0.12] 线体[BE25]A串口接收指令:04 02 00 00 00 02 F9 9E ,长度:8
2019-10-29 14:15:45 - 线程数[37] 线程[] 程序版本[1.0.0.12] 线体[BE25]A串口接收指令:05 02 00 00 00 02 F8 4F ,长度:8
2019-10-29 14:15:46 - 线程数[37] 线程[] 程序版本[1.0.0.12] 线体[BE25]B串口接收指令:06 02 00 00 00 02 F8 7C ,长度:8
2019-10-29 14:15:48 - 线程数[37] 线程[] 程序版本[1.0.0.12] 线体[BE25]A串口接收指令:08 02 00 00 00 02 F9 52 ,长度:8
2019-10-29 14:15:49 - 线程数[36] 线程[] 程序版本[1.0.0.12] 线体[BE25]B串口接收指令:09 02 00 00 00 02 F8 83 ,长度:8
2019-10-29 14:15:49 - 线程数[36] 线程[] 程序版本[1.0.0.12] 线体[BE25]A串口接收指令:09 02 00 00 00 02 F8 83 ,长度:8
2019-10-29 14:15:50 - 线程数[36] 线程[] 程序版本[1.0.0.12] 线体[BE25]B串口接收指令:0A 02 00 00 00 02 F8 B0 ,长度:8
2019-10-29 14:15:50 - 线程数[36] 线程[] 程序版本[1.0.0.12] 线体[BE25]A串口接收指令:0A 02 00 00 00 02 F8 B0 ,长度:8
2019-10-29 14:15:51 - 线程数[36] 线程[] 程序版本[1.0.0.12] 线体[BE25]B串口接收指令:0B 02 00 00 00 02 F9 61 ,长度:8
2019-10-29 14:15:51 - 线程数[36] 线程[] 程序版本[1.0.0.12] 线体[BE25]A串口接收指令:0B 02 00 00 00 02 F9 61 ,长度:8
2019-10-29 14:15:52 - 线程数[36] 线程[] 程序版本[1.0.0.12] 线体[BE25]B串口接收指令:0C 02 00 00 00 02 F8 D6 ,长度:8
2019-10-29 14:15:52 - 线程数[36] 线程[] 程序版本[1.0.0.12] 线体[BE25]A串口接收指令:0C 02 00 00 00 02 F8 D6 ,长度:8
2019-10-29 14:15:53 - 线程数[36] 线程[] 程序版本[1.0.0.12] 线体[BE25]B串口接收指令:0D 02 00 00 00 02 F9 07 ,长度:8
2019-10-29 14:15:53 - 线程数[37] 线程[] 程序版本[1.0.0.12] 线体[BE25]A串口接收指令:0D 02 00 00 00 02 F9 07 ,长度:8
2019-10-29 14:15:54 - 线程数[37] 线程[] 程序版本[1.0.0.12] 线体[BE25]B串口接收指令:0E 02 00 00 00 02 F9 34 ,长度:8
2019-10-29 14:15:54 - 线程数[37] 线程[] 程序版本[1.0.0.12] 线体[BE25]A串口接收指令:0E 02 00 00 00 02 F9 34 ,长度:8
2019-10-29 14:15:55 - 线程数[37] 线程[] 程序版本[1.0.0.12] 线体[BE25]B串口接收指令:0F 02 00 00 00 02 F8 E5 ,长度:8
2019-10-29 14:15:55 - 线程数[37] 线程[] 程序版本[1.0.0.12] 线体[BE25]A串口接收指令:0F 02 00 00 00 02 F8 E5 ,长度:8
2019-10-29 14:15:56 - 线程数[37] 线程[] 程序版本[1.0.0.12] 线体[BE25]B串口接收指令:10 02 00 00 00 02 FA 8A ,长度:8
2019-10-29 14:15:56 - 线程数[37] 线程[] 程序版本[1.0.0.12] 线体[BE25]A串口接收指令:10 02 00 00 00 02 FA 8A ,长度:8
2019-10-29 14:15:57 - 线程数[38] 线程[] 程序版本[1.0.0.12] 线体[BE25]B串口接收指令:11 02 00 00 00 02 FB 5B ,长度:8
2019-10-29 14:15:57 - 线程数[38] 线程[] 程序版本[1.0.0.12] 线体[BE25]A串口接收指令:11 02 00 00 00 02 FB 5B ,长度:8
2019-10-29 14:15:58 - 线程数[38] 线程[] 程序版本[1.0.0.12] 线体[BE25]B串口接收指令:12 02 00 00 00 02 FB 68 ,长度:8
2019-10-29 14:15:58 - 线程数[38] 线程[] 程序版本[1.0.0.12] 线体[BE25]A串口接收指令:12 02 00 00 00 02 FB 68 ,长度:8
2019-10-29 14:15:59 - 线程数[38] 线程[] 程序版本[1.0.0.12] 线体[BE25]B串口接收指令:13 02 00 00 00 02 FA B9 ,长度:8
2019-10-29 14:15:59 - 线程数[38] 线程[] 程序版本[1.0.0.12] 线体[BE25]A串口接收指令:13 02 00 00 00 02 FA B9 ,长度:8
2019-10-29 14:16:00 - 线程数[38] 线程[] 程序版本[1.0.0.12] 线体[BE25]B串口接收指令:14 02 00 00 00 02 FB 0E ,长度:8
2019-10-29 14:16:00 - 线程数[38] 线程[] 程序版本[1.0.0.12] 线体[BE25]A串口接收指令:14 02 00 00 00 02 FB 0E ,长度:8
2019-10-29 14:16:01 - 线程数[38] 线程[] 程序版本[1.0.0.12] 线体[BE25]B串口接收指令:15 02 00 00 00 02 FA DF ,长度:8
2019-10-29 14:16:01 - 线程数[38] 线程[] 程序版本[1.0.0.12] 线体[BE25]A串口接收指令:15 02 00 00 00 02 FA DF ,长度:8
2019-10-29 14:16:02 - 线程数[38] 线程[] 程序版本[1.0.0.12] 线体[BE25]B串口接收指令:16 02 00 00 00 02 FA EC ,长度:8
2019-10-29 14:16:02 - 线程数[38] 线程[] 程序版本[1.0.0.12] 线体[BE25]A串口接收指令:16 02 00 00 00 02 FA EC ,长度:8
2019-10-29 14:16:03 - 线程数[38] 线程[] 程序版本[1.0.0.12] 线体[BE25]B串口接收指令:17 02 00 00 00 02 FB 3D ,长度:8
2019-10-29 14:16:03 - 线程数[38] 线程[] 程序版本[1.0.0.12] 线体[BE25]A串口接收指令:17 02 00 00 00 02 FB 3D ,长度:8
2019-10-29 14:16:04 - 线程数[38] 线程[] 程序版本[1.0.0.12] 线体[BE25]B串口接收指令:18 02 00 00 00 02 FB C2 ,长度:8
2019-10-29 14:16:04 - 线程数[38] 线程[] 程序版本[1.0.0.12] 线体[BE25]A串口接收指令:18 02 00 00 00 02 FB C2 ,长度:8
2019-10-29 14:16:05 - 线程数[38] 线程[] 程序版本[1.0.0.12] 线体[BE25]B串口接收指令:19 02 00 00 00 02 FA 13 ,长度:8
2019-10-29 14:16:05 - 线程数[38] 线程[] 程序版本[1.0.0.12] 线体[BE25]A串口接收指令:19 02 00 00 00 02 FA 13 ,长度:8
2019-10-29 14:16:06 - 线程数[38] 线程[] 程序版本[1.0.0.12] 线体[BE25]B串口接收指令:1A 02 00 00 00 02 FA 20 ,长度:8
2019-10-29 14:16:06 - 线程数[38] 线程[] 程序版本[1.0.0.12] 线体[BE25]A串口接收指令:1A 02 00 00 00 02 FA 20 ,长度:8
2019-10-29 14:16:07 - 线程数[38] 线程[] 程序版本[1.0.0.12] 线体[BE25]B串口接收指令:1B 02 00 00 00 02 FB F1 ,长度:8
2019-10-29 14:16:07 - 线程数[38] 线程[] 程序版本[1.0.0.12] 线体[BE25]A串口接收指令:1B 02 00 00 00 02 FB F1 ,长度:8
2019-10-29 14:16:08 - 线程数[38] 线程[] 程序版本[1.0.0.12] 线体[BE25]B串口接收指令:1C 02 00 00 00 02 FA 46 ,长度:8
2019-10-29 14:16:08 - 线程数[38] 线程[] 程序版本[1.0.0.12] 线体[BE25]A串口接收指令:1C 02 00 00 00 02 FA 46 ,长度:8
2019-10-29 14:16:09 - 线程数[38] 线程[] 程序版本[1.0.0.12] 线体[BE25]B串口接收指令:1D 02 00 00 00 02 FB 97 ,长度:8
2019-10-29 14:16:09 - 线程数[38] 线程[] 程序版本[1.0.0.12] 线体[BE25]A串口接收指令:1D 02 00 00 00 02 FB 97 ,长度:8
2019-10-29 14:16:10 - 线程数[38] 线程[] 程序版本[1.0.0.12] 线体[BE25]B串口接收指令:1E 02 00 00 00 02 FB A4 ,长度:8
2019-10-29 14:16:10 - 线程数[38] 线程[] 程序版本[1.0.0.12] 线体[BE25]A串口接收指令:1E 02 00 00 00 02 FB A4 ,长度:8
2019-10-29 14:16:11 - 线程数[38] 线程[] 程序版本[1.0.0.12] 线体[BE25]B串口接收指令:01 02 00 00 00 02 F9 CB ,长度:8
2019-10-29 14:16:11 - 线程数[38] 线程[] 程序版本[1.0.0.12] 线体[BE25]A串口接收指令:01 02 00 00 00 02 F9 CB ,长度:8
2019-10-29 14:16:12 - 线程数[37] 线程[] 程序版本[1.0.0.12] 线体[BE25]B串口接收指令:02 02 00 00 00 02 F9 F8 ,长度:8
2019-10-29 14:16:12 - 线程数[37] 线程[] 程序版本[1.0.0.12] 线体[BE25]A串口接收指令:02 02 00 00 00 02 F9 F8 ,长度:8
2019-10-29 14:16:13 - 线程数[37] 线程[] 程序版本[1.0.0.12] 线体[BE25]A串口接收指令:03 04 00 00 00 02 70 29 ,长度:8
2019-10-29 14:16:14 - 线程数[37] 线程[] 程序版本[1.0.0.12] 线体[BE25]A串口接收指令:04 02 00 00 00 02 F9 9E ,长度:8
2019-10-29 14:16:15 - 线程数[37] 线程[] 程序版本[1.0.0.12] 线体[BE25]A串口接收指令:05 02 00 00 00 02 F8 4F ,长度:8
2019-10-29 14:16:16 - 线程数[37] 线程[] 程序版本[1.0.0.12] 线体[BE25]B串口接收指令:06 02 00 00 00 02 F8 7C ,长度:8
2019-10-29 14:16:18 - 线程数[37] 线程[] 程序版本[1.0.0.12] 线体[BE25]A串口接收指令:08 02 00 00 00 02 F9 52 ,长度:8
2019-10-29 14:16:19 - 线程数[37] 线程[] 程序版本[1.0.0.12] 线体[BE25]B串口接收指令:09 02 00 00 00 02 F8 83 ,长度:8
2019-10-29 14:16:19 - 线程数[37] 线程[] 程序版本[1.0.0.12] 线体[BE25]A串口接收指令:09 02 00 00 00 02 F8 83 ,长度:8
2019-10-29 14:16:20 - 线程数[37] 线程[] 程序版本[1.0.0.12] 线体[BE25]B串口接收指令:0A 02 00 00 00 02 F8 B0 ,长度:8
2019-10-29 14:16:20 - 线程数[37] 线程[] 程序版本[1.0.0.12] 线体[BE25]A串口接收指令:0A 02 00 00 00 02 F8 B0 ,长度:8
2019-10-29 14:16:21 - 线程数[37] 线程[] 程序版本[1.0.0.12] 线体[BE25]B串口接收指令:0B 02 00 00 00 02 F9 61 ,长度:8
2019-10-29 14:16:21 - 线程数[37] 线程[] 程序版本[1.0.0.12] 线体[BE25]A串口接收指令:0B 02 00 00 00 02 F9 61 ,长度:8
2019-10-29 14:16:22 - 线程数[37] 线程[] 程序版本[1.0.0.12] 线体[BE25]B串口接收指令:0C 02 00 00 00 02 F8 D6 ,长度:8
2019-10-29 14:16:22 - 线程数[37] 线程[] 程序版本[1.0.0.12] 线体[BE25]A串口接收指令:0C 02 00 00 00 02 F8 D6 ,长度:8
2019-10-29 14:16:23 - 线程数[37] 线程[] 程序版本[1.0.0.12] 线体[BE25]B串口接收指令:0D 02 00 00 00 02 F9 07 ,长度:8
2019-10-29 14:16:23 - 线程数[37] 线程[] 程序版本[1.0.0.12] 线体[BE25]A串口接收指令:0D 02 00 00 00 02 F9 07 ,长度:8
2019-10-29 14:16:24 - 线程数[37] 线程[] 程序版本[1.0.0.12] 线体[BE25]B串口接收指令:0E 02 00 00 00 02 F9 34 ,长度:8
2019-10-29 14:16:24 - 线程数[37] 线程[] 程序版本[1.0.0.12] 线体[BE25]A串口接收指令:0E 02 00 00 00 02 F9 34 ,长度:8
2019-10-29 14:16:25 - 线程数[37] 线程[] 程序版本[1.0.0.12] 线体[BE25]B串口接收指令:0F 02 00 00 00 02 F8 E5 ,长度:8
2019-10-29 14:16:25 - 线程数[37] 线程[] 程序版本[1.0.0.12] 线体[BE25]A串口接收指令:0F 02 00 00 00 02 F8 E5 ,长度:8
2019-10-29 14:16:26 - 线程数[37] 线程[] 程序版本[1.0.0.12] 线体[BE25]B串口接收指令:10 02 00 00 00 02 FA 8A ,长度:8
2019-10-29 14:16:26 - 线程数[37] 线程[] 程序版本[1.0.0.12] 线体[BE25]A串口接收指令:10 02 00 00 00 02 FA 8A ,长度:8
2019-10-29 14:16:27 - 线程数[38] 线程[] 程序版本[1.0.0.12] 线体[BE25]B串口接收指令:11 02 00 00 00 02 FB 5B ,长度:8
2019-10-29 14:16:27 - 线程数[38] 线程[] 程序版本[1.0.0.12] 线体[BE25]A串口接收指令:11 02 00 00 00 02 FB 5B ,长度:8
2019-10-29 14:16:28 - 线程数[38] 线程[] 程序版本[1.0.0.12] 线体[BE25]B串口接收指令:12 02 00 00 00 02 FB 68 ,长度:8
2019-10-29 14:16:28 - 线程数[38] 线程[] 程序版本[1.0.0.12] 线体[BE25]A串口接收指令:12 02 00 00 00 02 FB 68 ,长度:8
2019-10-29 14:16:29 - 线程数[38] 线程[] 程序版本[1.0.0.12] 线体[BE25]B串口接收指令:13 02 00 00 00 02 FA B9 ,长度:8
2019-10-29 14:16:29 - 线程数[38] 线程[] 程序版本[1.0.0.12] 线体[BE25]A串口接收指令:13 02 00 00 00 02 FA B9 ,长度:8
2019-10-29 14:16:30 - 线程数[38] 线程[] 程序版本[1.0.0.12] 线体[BE25]B串口接收指令:14 02 00 00 00 02 FB 0E ,长度:8
2019-10-29 14:16:30 - 线程数[38] 线程[] 程序版本[1.0.0.12] 线体[BE25]A串口接收指令:14 02 00 00 00 02 FB 0E ,长度:8
2019-10-29 14:16:31 - 线程数[38] 线程[] 程序版本[1.0.0.12] 线体[BE25]B串口接收指令:15 02 00 00 00 02 FA DF ,长度:8
2019-10-29 14:16:31 - 线程数[38] 线程[] 程序版本[1.0.0.12] 线体[BE25]A串口接收指令:15 02 00 00 00 02 FA DF ,长度:8
2019-10-29 14:16:32 - 线程数[38] 线程[] 程序版本[1.0.0.12] 线体[BE25]B串口接收指令:16 02 00 00 00 02 FA EC ,长度:8
2019-10-29 14:16:32 - 线程数[38] 线程[] 程序版本[1.0.0.12] 线体[BE25]A串口接收指令:16 02 00 00 00 02 FA EC ,长度:8
2019-10-29 14:16:33 - 线程数[38] 线程[] 程序版本[1.0.0.12] 线体[BE25]B串口接收指令:17 02 00 00 00 02 FB 3D ,长度:8
2019-10-29 14:16:33 - 线程数[38] 线程[] 程序版本[1.0.0.12] 线体[BE25]A串口接收指令:17 02 00 00 00 02 FB 3D ,长度:8
2019-10-29 14:16:34 - 线程数[38] 线程[] 程序版本[1.0.0.12] 线体[BE25]B串口接收指令:18 02 00 00 00 02 FB C2 ,长度:8
2019-10-29 14:16:34 - 线程数[38] 线程[] 程序版本[1.0.0.12] 线体[BE25]A串口接收指令:18 02 00 00 00 02 FB C2 ,长度:8
2019-10-29 14:16:42 - 线程数[21] 线程[报警状态轮询] 程序版本[1.0.0.12] 线体[BE25]报警灯(红灯)闪耀 启动
2019-10-29 14:16:42 - 线程数[21] 线程[统计图表线程] 程序版本[1.0.0.12] 线体[BE25]统计图表方法线程 启动
2019-10-29 14:16:42 - 线程数[26] 线程[ESD串口通信线程] 程序版本[1.0.0.12] 线体[BE25]A线程循环发送串口指令 启动
2019-10-29 14:16:42 - 线程数[29] 线程[ESD串口通信线程] 程序版本[1.0.0.12] 线体[BE25][采集器B]线程循环发送串口指令 启动
2019-10-29 14:16:44 - 线程数[34] 线程[ESD串口通信线程] 程序版本[1.0.0.12] 线体[BE25]B线程循环发送串口指令正在中止线程。
2019-10-29 14:16:46 - 线程数[38] 线程[ESD串口通信线程] 程序版本[1.0.0.12] 线体[BE25][采集器B]线程循环发送串口指令 启动
2019-10-29 14:17:27 - 线程数[26] 线程[报警状态轮询] 程序版本[1.0.0.12] 线体[BE25]报警灯(红灯)闪耀 启动
2019-10-29 14:17:27 - 线程数[26] 线程[统计图表线程] 程序版本[1.0.0.12] 线体[BE25]统计图表方法线程 启动
2019-10-29 14:17:27 - 线程数[26] 线程[统计图表线程] 程序版本[1.0.0.12] 线体[BE25]统计图表方法刷新线程 | 线程间操作无效: 从不是创建控件“ZedGraphControl1”的线程访问它。|   在 System.Windows.Forms.Control.get_Handle()
   在 System.Windows.Forms.Control.Invalidate(Boolean invalidateChildren)
   在 System.Windows.Forms.Control.Refresh()
   在 ESD_Kanban.Form1.CreateGraph_GradientByZBars(ZedGraphControl z1, String Title_name, Dictionary`2 getdic, Int32 displacement, Int32 MAX, Int32 XFontSpec) 位置 C:\Users\YUAN.SUO\Documents\程序开发\ESD在线看板\ESD可视化看板\Form1.vb:行号 1709
   在 ESD_Kanban.Form1.Statistical_chart() 位置 C:\Users\YUAN.SUO\Documents\程序开发\ESD在线看板\ESD可视化看板\Form1.vb:行号 1527
2019-10-29 14:17:27 - 线程数[33] 线程[ESD串口通信线程] 程序版本[1.0.0.12] 线体[BE25]A线程循环发送串口指令 启动
2019-10-29 14:17:27 - 线程数[34] 线程[ESD串口通信线程] 程序版本[1.0.0.12] 线体[BE25][采集器B]线程循环发送串口指令 启动
2019-10-29 14:17:34 - 线程数[42] 线程[ESD串口通信线程] 程序版本[1.0.0.12] 线体[BE25]B线程循环发送串口指令正在中止线程。
2019-10-29 14:17:36 - 线程数[42] 线程[ESD串口通信线程] 程序版本[1.0.0.12] 线体[BE25][采集器B]线程循环发送串口指令 启动
2019-10-29 14:17:37 - 线程数[42] 线程[] 程序版本[1.0.0.12] 线体[BE25]接收串口数据事件 在创建窗口句柄之前，不能在控件上调用 Invoke 或 BeginInvoke。   在 System.Windows.Forms.Control.MarshaledInvoke(Control caller, Delegate method, Object[] args, Boolean synchronous)
   在 System.Windows.Forms.Control.Invoke(Delegate method, Object[] args)
   在 System.Windows.Forms.Control.Invoke(Delegate method)
   在 ESD_Kanban.Form1.sc_DataReceived_right(Object sender, SerialDataReceivedEventArgs e, Byte[] bits)
   在 ESD_Kanban.SerialClass.SerialClass._serialPort_DataReceived(Object sender, SerialDataReceivedEventArgs e)
2019-10-29 14:21:50 - 线程数[26] 线程[统计图表线程] 程序版本[1.0.0.12] 线体[BE25]统计图表方法线程 启动
2019-10-29 14:21:50 - 线程数[26] 线程[报警状态轮询] 程序版本[1.0.0.12] 线体[BE25]报警灯(红灯)闪耀 启动
2019-10-29 14:21:50 - 线程数[26] 线程[统计图表线程] 程序版本[1.0.0.12] 线体[BE25]统计图表方法刷新线程 | 线程间操作无效: 从不是创建控件“ZedGraphControl1”的线程访问它。|   在 System.Windows.Forms.Control.get_Handle()
   在 System.Windows.Forms.Control.Invalidate(Boolean invalidateChildren)
   在 System.Windows.Forms.Control.Refresh()
   在 ESD_Kanban.Form1.CreateGraph_GradientByZBars(ZedGraphControl z1, String Title_name, Dictionary`2 getdic, Int32 displacement, Int32 MAX, Int32 XFontSpec) 位置 C:\Users\YUAN.SUO\Documents\程序开发\ESD在线看板\ESD可视化看板\Form1.vb:行号 1709
   在 ESD_Kanban.Form1.Statistical_chart() 位置 C:\Users\YUAN.SUO\Documents\程序开发\ESD在线看板\ESD可视化看板\Form1.vb:行号 1527
2019-10-29 14:21:50 - 线程数[32] 线程[ESD串口通信线程] 程序版本[1.0.0.12] 线体[BE25]A线程循环发送串口指令 启动
2019-10-29 14:21:50 - 线程数[34] 线程[ESD串口通信线程] 程序版本[1.0.0.12] 线体[BE25][采集器B]线程循环发送串口指令 启动
2019-10-29 14:23:37 - 线程数[25] 线程[报警状态轮询] 程序版本[1.0.0.12] 线体[BE25]报警灯(红灯)闪耀 启动
2019-10-29 14:23:37 - 线程数[25] 线程[统计图表线程] 程序版本[1.0.0.12] 线体[BE25]统计图表方法线程 启动
2019-10-29 14:23:38 - 线程数[25] 线程[统计图表线程] 程序版本[1.0.0.12] 线体[BE25]统计图表方法刷新线程 | 线程间操作无效: 从不是创建控件“ZedGraphControl1”的线程访问它。|   在 System.Windows.Forms.Control.get_Handle()
   在 System.Windows.Forms.Control.Invalidate(Boolean invalidateChildren)
   在 System.Windows.Forms.Control.Refresh()
   在 ESD_Kanban.Form1.CreateGraph_GradientByZBars(ZedGraphControl z1, String Title_name, Dictionary`2 getdic, Int32 displacement, Int32 MAX, Int32 XFontSpec) 位置 C:\Users\YUAN.SUO\Documents\程序开发\ESD在线看板\ESD可视化看板\Form1.vb:行号 1710
   在 ESD_Kanban.Form1.Statistical_chart() 位置 C:\Users\YUAN.SUO\Documents\程序开发\ESD在线看板\ESD可视化看板\Form1.vb:行号 1528
2019-10-29 14:23:38 - 线程数[31] 线程[ESD串口通信线程] 程序版本[1.0.0.12] 线体[BE25]A线程循环发送串口指令 启动
2019-10-29 14:23:38 - 线程数[34] 线程[ESD串口通信线程] 程序版本[1.0.0.12] 线体[BE25][采集器B]线程循环发送串口指令 启动
2019-10-29 14:23:58 - 线程数[43] 线程[] 程序版本[1.0.0.12] 线体[BE25]A串口接收指令:01 02 00 00 00 02 F9 CB ,长度:8
2019-10-29 14:23:58 - 线程数[43] 线程[] 程序版本[1.0.0.12] 线体[BE25]B串口接收指令:01 02 00 00 00 02 F9 CB ,长度:8
2019-10-29 14:24:01 - 线程数[43] 线程[] 程序版本[1.0.0.12] 线体[BE25]A串口接收指令:02 02 00 00 00 02 F9 F8 ,长度:8
2019-10-29 14:24:01 - 线程数[43] 线程[] 程序版本[1.0.0.12] 线体[BE25]B串口接收指令:02 02 00 00 00 02 F9 F8 ,长度:8
2019-10-29 14:24:01 - 线程数[43] 线程[] 程序版本[1.0.0.12] 线体[BE25]A串口接收指令:03 04 00 00 00 02 70 29 ,长度:8
2019-10-29 14:24:21 - 线程数[21] 线程[统计图表线程] 程序版本[1.0.0.12] 线体[BE25]统计图表方法线程 启动
2019-10-29 14:24:21 - 线程数[21] 线程[报警状态轮询] 程序版本[1.0.0.12] 线体[BE25]报警灯(红灯)闪耀 启动
2019-10-29 14:24:21 - 线程数[26] 线程[ESD串口通信线程] 程序版本[1.0.0.12] 线体[BE25]A线程循环发送串口指令 启动
2019-10-29 14:24:21 - 线程数[30] 线程[ESD串口通信线程] 程序版本[1.0.0.12] 线体[BE25][采集器B]线程循环发送串口指令 启动
2019-10-29 14:24:22 - 线程数[40] 线程[] 程序版本[1.0.0.12] 线体[BE25]A串口接收指令:01 02 00 00 00 02 F9 CB ,长度:8
2019-10-29 14:24:22 - 线程数[40] 线程[] 程序版本[1.0.0.12] 线体[BE25]B串口接收指令:01 02 00 00 00 02 F9 CB ,长度:8
2019-10-29 14:24:23 - 线程数[40] 线程[] 程序版本[1.0.0.12] 线体[BE25]B串口接收指令:02 02 00 00 00 02 F9 F8 ,长度:8
2019-10-29 14:24:23 - 线程数[40] 线程[] 程序版本[1.0.0.12] 线体[BE25]A串口接收指令:02 02 00 00 00 02 F9 F8 ,长度:8
2019-10-29 14:24:25 - 线程数[39] 线程[] 程序版本[1.0.0.12] 线体[BE25]A串口接收指令:03 04 00 00 00 02 70 29 ,长度:8
2019-10-29 14:24:26 - 线程数[39] 线程[] 程序版本[1.0.0.12] 线体[BE25]A串口接收指令:04 02 00 00 00 02 F9 9E ,长度:8
2019-10-29 14:24:27 - 线程数[39] 线程[] 程序版本[1.0.0.12] 线体[BE25]A串口接收指令:05 02 00 00 00 02 F8 4F ,长度:8
2019-10-29 14:24:28 - 线程数[39] 线程[] 程序版本[1.0.0.12] 线体[BE25]B串口接收指令:06 02 00 00 00 02 F8 7C ,长度:8
2019-10-29 14:24:30 - 线程数[39] 线程[] 程序版本[1.0.0.12] 线体[BE25]A串口接收指令:08 02 00 00 00 02 F9 52 ,长度:8
2019-10-29 14:24:31 - 线程数[38] 线程[] 程序版本[1.0.0.12] 线体[BE25]B串口接收指令:09 02 00 00 00 02 F8 83 ,长度:8
2019-10-29 14:24:31 - 线程数[38] 线程[] 程序版本[1.0.0.12] 线体[BE25]A串口接收指令:09 02 00 00 00 02 F8 83 ,长度:8
2019-10-29 14:24:32 - 线程数[38] 线程[] 程序版本[1.0.0.12] 线体[BE25]B串口接收指令:0A 02 00 00 00 02 F8 B0 ,长度:8
2019-10-29 14:24:32 - 线程数[38] 线程[] 程序版本[1.0.0.12] 线体[BE25]A串口接收指令:0A 02 00 00 00 02 F8 B0 ,长度:8
2019-10-29 14:24:33 - 线程数[38] 线程[] 程序版本[1.0.0.12] 线体[BE25]B串口接收指令:0B 02 00 00 00 02 F9 61 ,长度:8
2019-10-29 14:24:33 - 线程数[39] 线程[] 程序版本[1.0.0.12] 线体[BE25]A串口接收指令:0B 02 00 00 00 02 F9 61 ,长度:8
2019-10-29 14:24:34 - 线程数[39] 线程[] 程序版本[1.0.0.12] 线体[BE25]B串口接收指令:0C 02 00 00 00 02 F8 D6 ,长度:8
2019-10-29 14:24:34 - 线程数[39] 线程[] 程序版本[1.0.0.12] 线体[BE25]A串口接收指令:0C 02 00 00 00 02 F8 D6 ,长度:8
2019-10-29 14:24:35 - 线程数[39] 线程[] 程序版本[1.0.0.12] 线体[BE25]B串口接收指令:0D 02 00 00 00 02 F9 07 ,长度:8
2019-10-29 14:24:35 - 线程数[39] 线程[] 程序版本[1.0.0.12] 线体[BE25]A串口接收指令:0D 02 00 00 00 02 F9 07 ,长度:8
2019-10-29 14:24:36 - 线程数[39] 线程[] 程序版本[1.0.0.12] 线体[BE25]B串口接收指令:0E 02 00 00 00 02 F9 34 ,长度:8
2019-10-29 14:24:36 - 线程数[39] 线程[] 程序版本[1.0.0.12] 线体[BE25]A串口接收指令:0E 02 00 00 00 02 F9 34 ,长度:8
2019-10-29 14:24:37 - 线程数[39] 线程[] 程序版本[1.0.0.12] 线体[BE25]B串口接收指令:0F 02 00 00 00 02 F8 E5 ,长度:8
2019-10-29 14:24:37 - 线程数[39] 线程[] 程序版本[1.0.0.12] 线体[BE25]A串口接收指令:0F 02 00 00 00 02 F8 E5 ,长度:8
2019-10-29 14:24:38 - 线程数[39] 线程[] 程序版本[1.0.0.12] 线体[BE25]B串口接收指令:10 02 00 00 00 02 FA 8A ,长度:8
2019-10-29 14:24:38 - 线程数[39] 线程[] 程序版本[1.0.0.12] 线体[BE25]A串口接收指令:10 02 00 00 00 02 FA 8A ,长度:8
2019-10-29 14:24:39 - 线程数[39] 线程[] 程序版本[1.0.0.12] 线体[BE25]B串口接收指令:11 02 00 00 00 02 FB 5B ,长度:8
2019-10-29 14:24:39 - 线程数[39] 线程[] 程序版本[1.0.0.12] 线体[BE25]A串口接收指令:11 02 00 00 00 02 FB 5B ,长度:8
2019-10-29 14:24:40 - 线程数[39] 线程[] 程序版本[1.0.0.12] 线体[BE25]B串口接收指令:12 02 00 00 00 02 FB 68 ,长度:8
2019-10-29 14:24:40 - 线程数[39] 线程[] 程序版本[1.0.0.12] 线体[BE25]A串口接收指令:12 02 00 00 00 02 FB 68 ,长度:8
2019-10-29 14:24:41 - 线程数[39] 线程[] 程序版本[1.0.0.12] 线体[BE25]B串口接收指令:13 02 00 00 00 02 FA B9 ,长度:8
2019-10-29 14:24:41 - 线程数[39] 线程[] 程序版本[1.0.0.12] 线体[BE25]A串口接收指令:13 02 00 00 00 02 FA B9 ,长度:8
2019-10-29 14:24:42 - 线程数[39] 线程[] 程序版本[1.0.0.12] 线体[BE25]B串口接收指令:14 02 00 00 00 02 FB 0E ,长度:8
2019-10-29 14:24:42 - 线程数[39] 线程[] 程序版本[1.0.0.12] 线体[BE25]A串口接收指令:14 02 00 00 00 02 FB 0E ,长度:8
2019-10-29 14:24:43 - 线程数[39] 线程[] 程序版本[1.0.0.12] 线体[BE25]B串口接收指令:15 02 00 00 00 02 FA DF ,长度:8
2019-10-29 14:24:43 - 线程数[39] 线程[] 程序版本[1.0.0.12] 线体[BE25]A串口接收指令:15 02 00 00 00 02 FA DF ,长度:8
2019-10-29 14:24:44 - 线程数[39] 线程[] 程序版本[1.0.0.12] 线体[BE25]B串口接收指令:16 02 00 00 00 02 FA EC ,长度:8
2019-10-29 14:24:44 - 线程数[39] 线程[] 程序版本[1.0.0.12] 线体[BE25]A串口接收指令:16 02 00 00 00 02 FA EC ,长度:8
2019-10-29 14:24:45 - 线程数[39] 线程[] 程序版本[1.0.0.12] 线体[BE25]B串口接收指令:17 02 00 00 00 02 FB 3D ,长度:8
2019-10-29 14:24:45 - 线程数[39] 线程[] 程序版本[1.0.0.12] 线体[BE25]A串口接收指令:17 02 00 00 00 02 FB 3D ,长度:8
2019-10-29 14:24:46 - 线程数[39] 线程[] 程序版本[1.0.0.12] 线体[BE25]B串口接收指令:18 02 00 00 00 02 FB C2 ,长度:8
2019-10-29 14:24:46 - 线程数[39] 线程[] 程序版本[1.0.0.12] 线体[BE25]A串口接收指令:18 02 00 00 00 02 FB C2 ,长度:8
2019-10-29 14:24:47 - 线程数[39] 线程[] 程序版本[1.0.0.12] 线体[BE25]B串口接收指令:19 02 00 00 00 02 FA 13 ,长度:8
2019-10-29 14:24:47 - 线程数[39] 线程[] 程序版本[1.0.0.12] 线体[BE25]A串口接收指令:19 02 00 00 00 02 FA 13 ,长度:8
2019-10-29 14:24:48 - 线程数[39] 线程[] 程序版本[1.0.0.12] 线体[BE25]B串口接收指令:1A 02 00 00 00 02 FA 20 ,长度:8
2019-10-29 14:24:48 - 线程数[39] 线程[] 程序版本[1.0.0.12] 线体[BE25]A串口接收指令:1A 02 00 00 00 02 FA 20 ,长度:8
2019-10-29 14:24:49 - 线程数[39] 线程[] 程序版本[1.0.0.12] 线体[BE25]B串口接收指令:1B 02 00 00 00 02 FB F1 ,长度:8
2019-10-29 14:24:49 - 线程数[39] 线程[] 程序版本[1.0.0.12] 线体[BE25]A串口接收指令:1B 02 00 00 00 02 FB F1 ,长度:8
2019-10-29 14:24:50 - 线程数[39] 线程[] 程序版本[1.0.0.12] 线体[BE25]B串口接收指令:1C 02 00 00 00 02 FA 46 ,长度:8
2019-10-29 14:24:50 - 线程数[39] 线程[] 程序版本[1.0.0.12] 线体[BE25]A串口接收指令:1C 02 00 00 00 02 FA 46 ,长度:8
2019-10-29 14:24:51 - 线程数[39] 线程[] 程序版本[1.0.0.12] 线体[BE25]B串口接收指令:1D 02 00 00 00 02 FB 97 ,长度:8
2019-10-29 14:24:51 - 线程数[39] 线程[] 程序版本[1.0.0.12] 线体[BE25]A串口接收指令:1D 02 00 00 00 02 FB 97 ,长度:8
2019-10-29 14:24:52 - 线程数[39] 线程[] 程序版本[1.0.0.12] 线体[BE25]B串口接收指令:1E 02 00 00 00 02 FB A4 ,长度:8
2019-10-29 14:24:52 - 线程数[39] 线程[] 程序版本[1.0.0.12] 线体[BE25]A串口接收指令:1E 02 00 00 00 02 FB A4 ,长度:8
2019-10-29 14:24:53 - 线程数[39] 线程[] 程序版本[1.0.0.12] 线体[BE25]B串口接收指令:01 02 00 00 00 02 F9 CB ,长度:8
2019-10-29 14:24:53 - 线程数[39] 线程[] 程序版本[1.0.0.12] 线体[BE25]A串口接收指令:01 02 00 00 00 02 F9 CB ,长度:8
2019-10-29 14:24:54 - 线程数[39] 线程[] 程序版本[1.0.0.12] 线体[BE25]B串口接收指令:02 02 00 00 00 02 F9 F8 ,长度:8
2019-10-29 14:24:54 - 线程数[39] 线程[] 程序版本[1.0.0.12] 线体[BE25]A串口接收指令:02 02 00 00 00 02 F9 F8 ,长度:8
2019-10-29 14:24:55 - 线程数[39] 线程[] 程序版本[1.0.0.12] 线体[BE25]A串口接收指令:03 04 00 00 00 02 70 29 ,长度:8
2019-10-29 14:24:56 - 线程数[39] 线程[] 程序版本[1.0.0.12] 线体[BE25]A串口接收指令:04 02 00 00 00 02 F9 9E ,长度:8
2019-10-29 14:24:57 - 线程数[39] 线程[] 程序版本[1.0.0.12] 线体[BE25]A串口接收指令:05 02 00 00 00 02 F8 4F ,长度:8
2019-10-29 14:24:58 - 线程数[39] 线程[] 程序版本[1.0.0.12] 线体[BE25]B串口接收指令:06 02 00 00 00 02 F8 7C ,长度:8
2019-10-29 14:26:27 - 线程数[21] 线程[统计图表线程] 程序版本[1.0.0.12] 线体[BE25]统计图表方法线程 启动
2019-10-29 14:26:27 - 线程数[21] 线程[报警状态轮询] 程序版本[1.0.0.12] 线体[BE25]报警灯(红灯)闪耀 启动
2019-10-29 14:26:27 - 线程数[26] 线程[ESD串口通信线程] 程序版本[1.0.0.12] 线体[BE25]A线程循环发送串口指令 启动
2019-10-29 14:26:27 - 线程数[28] 线程[ESD串口通信线程] 程序版本[1.0.0.12] 线体[BE25][采集器B]线程循环发送串口指令 启动
2019-10-29 14:26:28 - 线程数[40] 线程[] 程序版本[1.0.0.12] 线体[BE25]A串口接收指令:01 02 00 00 00 02 F9 CB ,长度:8
2019-10-29 14:26:28 - 线程数[40] 线程[] 程序版本[1.0.0.12] 线体[BE25]B串口接收指令:01 02 00 00 00 02 F9 CB ,长度:8
2019-10-29 14:26:29 - 线程数[40] 线程[] 程序版本[1.0.0.12] 线体[BE25]B串口接收指令:02 02 00 00 00 02 F9 F8 ,长度:8
2019-10-29 14:26:29 - 线程数[40] 线程[] 程序版本[1.0.0.12] 线体[BE25]A串口接收指令:02 02 00 00 00 02 F9 F8 ,长度:8
2019-10-29 14:26:30 - 线程数[39] 线程[] 程序版本[1.0.0.12] 线体[BE25]A串口接收指令:03 04 00 00 00 02 70 29 ,长度:8
2019-10-29 14:26:32 - 线程数[39] 线程[] 程序版本[1.0.0.12] 线体[BE25]A串口接收指令:04 02 00 00 00 02 F9 9E ,长度:8
2019-10-29 14:26:33 - 线程数[39] 线程[] 程序版本[1.0.0.12] 线体[BE25]A串口接收指令:05 02 00 00 00 02 F8 4F ,长度:8
2019-10-29 14:26:33 - 线程数[39] 线程[] 程序版本[1.0.0.12] 线体[BE25]B串口接收指令:06 02 00 00 00 02 F8 7C ,长度:8
2019-10-29 14:26:36 - 线程数[39] 线程[] 程序版本[1.0.0.12] 线体[BE25]A串口接收指令:08 02 00 00 00 02 F9 52 ,长度:8
2019-10-29 14:26:37 - 线程数[38] 线程[] 程序版本[1.0.0.12] 线体[BE25]B串口接收指令:09 02 00 00 00 02 F8 83 ,长度:8
2019-10-29 14:26:37 - 线程数[38] 线程[] 程序版本[1.0.0.12] 线体[BE25]A串口接收指令:09 02 00 00 00 02 F8 83 ,长度:8
2019-10-29 14:26:38 - 线程数[38] 线程[] 程序版本[1.0.0.12] 线体[BE25]B串口接收指令:0A 02 00 00 00 02 F8 B0 ,长度:8
2019-10-29 14:26:38 - 线程数[38] 线程[] 程序版本[1.0.0.12] 线体[BE25]A串口接收指令:0A 02 00 00 00 02 F8 B0 ,长度:8
2019-10-29 14:26:39 - 线程数[38] 线程[] 程序版本[1.0.0.12] 线体[BE25]B串口接收指令:0B 02 00 00 00 02 F9 61 ,长度:8
2019-10-29 14:26:39 - 线程数[38] 线程[] 程序版本[1.0.0.12] 线体[BE25]A串口接收指令:0B 02 00 00 00 02 F9 61 ,长度:8
2019-10-29 14:26:40 - 线程数[38] 线程[] 程序版本[1.0.0.12] 线体[BE25]B串口接收指令:0C 02 00 00 00 02 F8 D6 ,长度:8
2019-10-29 14:26:40 - 线程数[38] 线程[] 程序版本[1.0.0.12] 线体[BE25]A串口接收指令:0C 02 00 00 00 02 F8 D6 ,长度:8
2019-10-29 14:26:41 - 线程数[38] 线程[] 程序版本[1.0.0.12] 线体[BE25]B串口接收指令:0D 02 00 00 00 02 F9 07 ,长度:8
2019-10-29 14:26:41 - 线程数[38] 线程[] 程序版本[1.0.0.12] 线体[BE25]A串口接收指令:0D 02 00 00 00 02 F9 07 ,长度:8
2019-10-29 14:26:42 - 线程数[38] 线程[] 程序版本[1.0.0.12] 线体[BE25]B串口接收指令:0E 02 00 00 00 02 F9 34 ,长度:8
2019-10-29 14:26:42 - 线程数[39] 线程[] 程序版本[1.0.0.12] 线体[BE25]A串口接收指令:0E 02 00 00 00 02 F9 34 ,长度:8
2019-10-29 14:26:43 - 线程数[39] 线程[] 程序版本[1.0.0.12] 线体[BE25]B串口接收指令:0F 02 00 00 00 02 F8 E5 ,长度:8
2019-10-29 14:26:43 - 线程数[39] 线程[] 程序版本[1.0.0.12] 线体[BE25]A串口接收指令:0F 02 00 00 00 02 F8 E5 ,长度:8
2019-10-29 14:26:44 - 线程数[39] 线程[] 程序版本[1.0.0.12] 线体[BE25]B串口接收指令:10 02 00 00 00 02 FA 8A ,长度:8
2019-10-29 14:26:44 - 线程数[39] 线程[] 程序版本[1.0.0.12] 线体[BE25]A串口接收指令:10 02 00 00 00 02 FA 8A ,长度:8
2019-10-29 14:26:45 - 线程数[37] 线程[] 程序版本[1.0.0.12] 线体[BE25]B串口接收指令:11 02 00 00 00 02 FB 5B ,长度:8
2019-10-29 14:26:45 - 线程数[37] 线程[] 程序版本[1.0.0.12] 线体[BE25]A串口接收指令:11 02 00 00 00 02 FB 5B ,长度:8
2019-10-29 14:26:46 - 线程数[37] 线程[] 程序版本[1.0.0.12] 线体[BE25]B串口接收指令:12 02 00 00 00 02 FB 68 ,长度:8
2019-10-29 14:26:46 - 线程数[37] 线程[] 程序版本[1.0.0.12] 线体[BE25]A串口接收指令:12 02 00 00 00 02 FB 68 ,长度:8
2019-10-29 14:26:47 - 线程数[37] 线程[] 程序版本[1.0.0.12] 线体[BE25]B串口接收指令:13 02 00 00 00 02 FA B9 ,长度:8
2019-10-29 14:26:47 - 线程数[39] 线程[] 程序版本[1.0.0.12] 线体[BE25]A串口接收指令:13 02 00 00 00 02 FA B9 ,长度:8
2019-10-29 14:26:48 - 线程数[39] 线程[] 程序版本[1.0.0.12] 线体[BE25]B串口接收指令:14 02 00 00 00 02 FB 0E ,长度:8
2019-10-29 14:26:48 - 线程数[39] 线程[] 程序版本[1.0.0.12] 线体[BE25]A串口接收指令:14 02 00 00 00 02 FB 0E ,长度:8
2019-10-29 14:26:49 - 线程数[39] 线程[] 程序版本[1.0.0.12] 线体[BE25]B串口接收指令:15 02 00 00 00 02 FA DF ,长度:8
2019-10-29 14:26:49 - 线程数[39] 线程[] 程序版本[1.0.0.12] 线体[BE25]A串口接收指令:15 02 00 00 00 02 FA DF ,长度:8
2019-10-29 14:26:50 - 线程数[39] 线程[] 程序版本[1.0.0.12] 线体[BE25]B串口接收指令:16 02 00 00 00 02 FA EC ,长度:8
2019-10-29 14:26:50 - 线程数[39] 线程[] 程序版本[1.0.0.12] 线体[BE25]A串口接收指令:16 02 00 00 00 02 FA EC ,长度:8
2019-10-29 14:26:51 - 线程数[39] 线程[] 程序版本[1.0.0.12] 线体[BE25]B串口接收指令:17 02 00 00 00 02 FB 3D ,长度:8
2019-10-29 14:26:51 - 线程数[39] 线程[] 程序版本[1.0.0.12] 线体[BE25]A串口接收指令:17 02 00 00 00 02 FB 3D ,长度:8
2019-10-29 14:26:52 - 线程数[39] 线程[] 程序版本[1.0.0.12] 线体[BE25]B串口接收指令:18 02 00 00 00 02 FB C2 ,长度:8
2019-10-29 14:26:52 - 线程数[39] 线程[] 程序版本[1.0.0.12] 线体[BE25]A串口接收指令:18 02 00 00 00 02 FB C2 ,长度:8
2019-10-29 14:26:53 - 线程数[39] 线程[] 程序版本[1.0.0.12] 线体[BE25]B串口接收指令:19 02 00 00 00 02 FA 13 ,长度:8
2019-10-29 14:26:53 - 线程数[39] 线程[] 程序版本[1.0.0.12] 线体[BE25]A串口接收指令:19 02 00 00 00 02 FA 13 ,长度:8